T3C18 000:010.299   SEGGER J-Link V6.56 Log File
T3C18 000:010.382   DLL Compiled: Nov 22 2019 17:07:10
T3C18 000:010.386   Logging started @ 2024-01-20 08:37
T3C18 000:010.392 JLINK_SetWarnOutHandler(...)
T3C18 000:010.396 - 0.006ms
T3C18 000:010.402 JLINK_OpenEx(...)
T3C18 000:014.234   Firmware: J-Link V11 compiled Jan  4 2021 16:16:18
T3C18 000:023.372   Hardware: V11.00
T3C18 000:023.392   S/N: 50120677
T3C18 000:023.398   OEM: SEGGER
T3C18 000:023.403   Feature(s): GDB, JFlash, FlashDL, RDI, FlashBP
T3C18 000:025.610   TELNET listener socket opened on port 19021
T3C18 000:050.599   WEBSRV Starting webserver
T3C18 000:050.822   WEBSRV Webserver running on local port 19081
T3C18 000:050.830 - 40.430ms returns "O.K."
T3C18 000:050.902 JLINK_GetEmuCaps()
T3C18 000:050.907 - 0.006ms returns 0xB9FF7BBF
T3C18 000:050.917 JLINK_TIF_GetAvailable(...)
T3C18 000:051.282 - 0.378ms
T3C18 000:051.340 JLINK_SetErrorOutHandler(...)
T3C18 000:051.344 - 0.006ms
T3C18 000:051.374 JLINK_ExecCommand("ProjectFile = "E:\work\LoRa Module\ÀÖÇå-À¶ÑÀÍ¸´«Ä£¿é\LoRa_BLE\JLinkSettings.ini"", ...). 
T3C18 000:052.196   Ref file found at: E:\Software\MDK5.27\ARM\Segger\JLinkDevices.ref
T3C18 000:052.253   XML referenced by ref file: C:\Program Files (x86)\SEGGER\JLink\JLinkDevices.xml
T3C18 000:053.408   C:\Program Files (x86)\SEGGER\JLink\JLinkDevices.xml evaluated successfully.
T3C18 000:094.370   Device "CORTEX-M4" selected.
T3C18 000:094.640 - 43.276ms returns 0x00
T3C18 000:094.673 JLINK_ExecCommand("Device = ARMCM4_FP", ...). 
T3C18 000:094.747   Device "CORTEX-M4" selected.
T3C18 000:094.947 - 0.271ms returns 0x00
T3C18 000:094.956 JLINK_ExecCommand("DisableConnectionTimeout", ...). 
T3C18 000:094.964 - 0.004ms returns 0x01
T3C18 000:094.970 JLINK_GetHardwareVersion()
T3C18 000:094.976 - 0.007ms returns 0x1ADB0
T3C18 000:094.983 JLINK_GetDLLVersion()  returns 65600
T3C18 000:094.995 JLINK_GetFirmwareString(...)
T3C18 000:094.999 - 0.005ms
T3C18 000:095.018 JLINK_GetDLLVersion()  returns 65600
T3C18 000:095.023 JLINK_GetCompileDateTime()
T3C18 000:095.026 - 0.005ms
T3C18 000:095.034 JLINK_GetFirmwareString(...)
T3C18 000:095.038 - 0.005ms
T3C18 000:095.045 JLINK_GetHardwareVersion()
T3C18 000:095.048 - 0.005ms returns 0x1ADB0
T3C18 000:095.065 JLINK_TIF_Select(JLINKARM_TIF_SWD)
T3C18 000:096.561 - 1.505ms returns 0x00
T3C18 000:096.617 JLINK_SetSpeed(5000)
T3C18 000:096.842 - 0.230ms
T3C18 000:096.872 JLINK_GetId()
T3C18 000:097.813   Found SW-DP with ID 0x2BA01477
T3C18 000:100.830   Scanning AP map to find all available APs
T3C18 000:104.214   AP[1]: Stopped AP scan as end of AP map has been reached
T3C18 000:104.236   AP[0]: AHB-AP (IDR: 0x24770011)
T3C18 000:104.244   Iterating through AP map to find AHB-AP to use
T3C18 000:110.987   AP[0]: Core found
T3C18 000:111.004   AP[0]: AHB-AP ROM base: 0xE00FF000
T3C18 000:113.641   CPUID register: 0x410FC241. Implementer code: 0x41 (ARM)
T3C18 000:113.652   Found Cortex-M4 r0p1, Little endian.
T3C18 000:215.450    -- Max. mem block: 0x000042A0
T3C18 000:215.479    -- CPU_ReadMem(4 bytes @ 0xE000EDF0)
T3C18 000:217.199    -- CPU_ReadMem(4 bytes @ 0xE0002000)
T3C18 000:217.691   FPUnit: 6 code (BP) slots and 2 literal slots
T3C18 000:217.699    -- CPU_ReadMem(4 bytes @ 0xE000EDFC)
T3C18 000:218.146    -- CPU_ReadMem(4 bytes @ 0xE0001000)
T3C18 000:218.499    -- CPU_WriteMem(4 bytes @ 0xE0001000)
T3C18 000:218.998    -- CPU_ReadMem(4 bytes @ 0xE000ED88)
T3C18 000:219.350    -- CPU_WriteMem(4 bytes @ 0xE000ED88)
T3C18 000:219.736    -- CPU_ReadMem(4 bytes @ 0xE000ED88)
T3C18 000:220.108    -- CPU_WriteMem(4 bytes @ 0xE000ED88)
T3C18 000:220.575   CoreSight components:
T3C18 000:220.590   ROMTbl[0] @ E00FF000
T3C18 000:220.597    -- CPU_ReadMem(16 bytes @ 0xE00FF000)
T3C18 000:220.991    -- CPU_ReadMem(16 bytes @ 0xE000EFF0)
T3C18 000:221.506    -- CPU_ReadMem(16 bytes @ 0xE000EFE0)
T3C18 000:221.957   ROMTbl[0][0]: E000E000, CID: B105E00D, PID: 000BB00C SCS-M7
T3C18 000:221.968    -- CPU_ReadMem(16 bytes @ 0xE0001FF0)
T3C18 000:222.489    -- CPU_ReadMem(16 bytes @ 0xE0001FE0)
T3C18 000:222.978   ROMTbl[0][1]: E0001000, CID: B105E00D, PID: 003BB002 DWT
T3C18 000:222.989    -- CPU_ReadMem(16 bytes @ 0xE0002FF0)
T3C18 000:223.378    -- CPU_ReadMem(16 bytes @ 0xE0002FE0)
T3C18 000:223.851   ROMTbl[0][2]: E0002000, CID: B105E00D, PID: 002BB003 FPB
T3C18 000:223.863    -- CPU_ReadMem(16 bytes @ 0xE0000FF0)
T3C18 000:224.276    -- CPU_ReadMem(16 bytes @ 0xE0000FE0)
T3C18 000:224.732   ROMTbl[0][3]: E0000000, CID: B105E00D, PID: 003BB001 ITM
T3C18 000:224.738    -- CPU_ReadMem(16 bytes @ 0xE00FF010)
T3C18 000:225.204    -- CPU_ReadMem(16 bytes @ 0xE0040FF0)
T3C18 000:225.573    -- CPU_ReadMem(16 bytes @ 0xE0040FE0)
T3C18 000:225.950   ROMTbl[0][4]: E0040000, CID: B105900D, PID: 000BB9A1 TPIU
T3C18 000:226.496 - 129.629ms   returns 0x2BA01477
T3C18 000:226.527 JLINK_GetDLLVersion()  returns 65600
T3C18 000:226.542 JLINK_CORE_GetFound()
T3C18 000:226.546 - 0.006ms returns 0xE0000FF
T3C18 000:226.554 JLINK_GetDebugInfo(0x100 = JLINKARM_ROM_TABLE_ADDR_INDEX)
T3C18 000:226.559   Value=0xE00FF000
T3C18 000:226.563 - 0.011ms returns 0x00
T3C18 000:226.576 JLINK_GetDebugInfo(0x100 = JLINKARM_ROM_TABLE_ADDR_INDEX)
T3C18 000:226.580   Value=0xE00FF000
T3C18 000:226.584 - 0.010ms returns 0x00
T3C18 000:226.589 JLINK_GetDebugInfo(0x101 = JLINKARM_DEBUG_INFO_ETM_ADDR_INDEX)
T3C18 000:226.592   Value=0x00000000
T3C18 000:226.597 - 0.010ms returns 0x00
T3C18 000:226.606   JLINK_ReadMemEx(0xE0041FF0, 0x0010 Bytes, ..., Flags = 0x02000004)
T3C18 000:226.622    -- CPU_ReadMem(16 bytes @ 0xE0041FF0)
T3C18 000:227.151   Data:  00 00 00 00 00 00 00 00 00 00 00 00 00 00 00 00
T3C18 000:227.160 - 0.557ms returns 0x10
T3C18 000:227.194 JLINK_GetDebugInfo(0x102 = JLINKARM_DEBUG_INFO_MTB_ADDR_INDEX)
T3C18 000:227.199   Value=0x00000000
T3C18 000:227.204 - 0.011ms returns 0x00
T3C18 000:227.208 JLINK_GetDebugInfo(0x103 = JLINKARM_DEBUG_INFO_TPIU_ADDR_INDEX)
T3C18 000:227.212   Value=0xE0040000
T3C18 000:227.217 - 0.010ms returns 0x00
T3C18 000:227.221 JLINK_GetDebugInfo(0x104 = JLINKARM_DEBUG_INFO_ITM_ADDR_INDEX)
T3C18 000:227.225   Value=0xE0000000
T3C18 000:227.230 - 0.010ms returns 0x00
T3C18 000:227.234 JLINK_GetDebugInfo(0x105 = JLINKARM_DEBUG_INFO_DWT_ADDR_INDEX)
T3C18 000:227.238   Value=0xE0001000
T3C18 000:227.243 - 0.010ms returns 0x00
T3C18 000:227.247 JLINK_GetDebugInfo(0x106 = JLINKARM_DEBUG_INFO_FPB_ADDR_INDEX)
T3C18 000:227.250   Value=0xE0002000
T3C18 000:227.255 - 0.010ms returns 0x00
T3C18 000:227.260 JLINK_GetDebugInfo(0x107 = JLINKARM_DEBUG_INFO_NVIC_ADDR_INDEX)
T3C18 000:227.263   Value=0xE000E000
T3C18 000:227.268 - 0.010ms returns 0x00
T3C18 000:227.273 JLINK_GetDebugInfo(0x10C = JLINKARM_DEBUG_INFO_DBG_ADDR_INDEX)
T3C18 000:227.276   Value=0xE000EDF0
T3C18 000:227.281 - 0.010ms returns 0x00
T3C18 000:227.285 JLINK_GetDebugInfo(0x01 = Unknown)
T3C18 000:227.291   Value=0x00000001
T3C18 000:227.295 - 0.011ms returns 0x00
T3C18 000:227.300   JLINK_ReadMemU32(0xE000ED00, 0x0001 Items, ...)
T3C18 000:227.310    -- CPU_ReadMem(4 bytes @ 0xE000ED00)
T3C18 000:227.651   Data:  41 C2 0F 41
T3C18 000:227.659    - CPUID
T3C18 000:227.664 - 0.365ms returns 1
T3C18 000:227.686 JLINK_GetDebugInfo(0x10F = JLINKARM_DEBUG_INFO_HAS_CORTEX_M_SECURITY_EXT_INDEX)
T3C18 000:227.691   Value=0x00000000
T3C18 000:227.695 - 0.010ms returns 0x00
T3C18 000:227.702 JLINK_SetResetType(JLINKARM_CM3_RESET_TYPE_NORMAL)
T3C18 000:227.706 - 0.005ms returns JLINKARM_CM3_RESET_TYPE_NORMAL
T3C18 000:227.711 JLINK_Reset()
T3C18 000:227.793   CPU is running
T3C18 000:227.800    -- CPU_WriteMem(4 bytes @ 0xE000EDF0)
T3C18 000:228.235   CPU is running
T3C18 000:228.246    -- CPU_WriteMem(4 bytes @ 0xE000EDFC)
T3C18 000:228.601   Reset: Halt core after reset via DEMCR.VC_CORERESET.
T3C18 000:229.189   Reset: Reset device via AIRCR.SYSRESETREQ.
T3C18 000:229.216   CPU is running
T3C18 000:229.222    -- CPU_WriteMem(4 bytes @ 0xE000ED0C)
T3C18 000:282.096    -- CPU_ReadMem(4 bytes @ 0xE000EDF0)
T3C18 000:282.503    -- CPU_ReadMem(4 bytes @ 0xE000EDF0)
T3C18 000:282.915   CPU is running
T3C18 000:282.936    -- CPU_WriteMem(4 bytes @ 0xE000EDF0)
T3C18 000:283.308   CPU is running
T3C18 000:283.321    -- CPU_WriteMem(4 bytes @ 0xE000EDFC)
T3C18 000:289.465    -- CPU_ReadMem(4 bytes @ 0xE000EDF0)
T3C18 000:292.090    -- CPU_WriteMem(4 bytes @ 0xE0002000)
T3C18 000:292.537    -- CPU_ReadMem(4 bytes @ 0xE000EDFC)
T3C18 000:292.929    -- CPU_ReadMem(4 bytes @ 0xE0001000)
T3C18 000:293.325    -- CPU_WriteMem(4 bytes @ 0xE0001000)
T3C18 000:293.688 - 65.979ms
T3C18 000:293.730 JLINK_ReadReg(R15 (PC))
T3C18 000:293.738 - 0.009ms returns 0x080020DC
T3C18 000:293.742 JLINK_ReadReg(XPSR)
T3C18 000:293.746 - 0.005ms returns 0x81000000
T3C18 000:293.751 JLINK_Halt()
T3C18 000:293.755 - 0.005ms returns 0x00
T3C18 000:293.760   JLINK_ReadMemU32(0xE000EDF0, 0x0001 Items, ...)
T3C18 000:293.768    -- CPU_ReadMem(4 bytes @ 0xE000EDF0)
T3C18 000:294.133   Data:  03 00 03 00
T3C18 000:294.139    - DHCSR
T3C18 000:294.144 - 0.385ms returns 1
T3C18 000:294.164   JLINK_WriteU32(0xE000EDF0, 0xA05F0003)
T3C18 000:294.169    - DHCSR
T3C18 000:294.179    -- CPU_WriteMem(4 bytes @ 0xE000EDF0)
T3C18 000:294.612 - 0.459ms returns 0
T3C18 000:294.641   JLINK_WriteU32(0xE000EDFC, 0x01000000)
T3C18 000:294.646    - DEMCR
T3C18 000:294.654    -- CPU_WriteMem(4 bytes @ 0xE000EDFC)
T3C18 000:295.036 - 0.399ms returns 0
T3C18 000:295.091 JLINK_GetHWStatus(...)
T3C18 000:295.379 - 0.290ms returns 0x00
T3C18 000:295.411 JLINK_GetNumBPUnits(Type = 0xFFFFFF00)
T3C18 000:295.416 - 0.006ms returns 0x06
T3C18 000:295.420 JLINK_GetNumBPUnits(Type = 0xF0)
T3C18 000:295.423 - 0.005ms returns 0x2000
T3C18 000:295.428 JLINK_GetNumWPUnits()
T3C18 000:295.431 - 0.005ms returns 0x04
T3C18 000:295.444 JLINK_GetSpeed()
T3C18 000:295.447 - 0.005ms returns 0x1388
T3C18 000:295.456   JLINK_ReadMemU32(0xE000E004, 0x0001 Items, ...)
T3C18 000:295.463    -- CPU_ReadMem(4 bytes @ 0xE000E004)
T3C18 000:295.808   Data:  01 00 00 00
T3C18 000:295.818 - 0.370ms returns 1
T3C18 000:295.865   JLINK_ReadMemU32(0xE000E004, 0x0001 Items, ...)
T3C18 000:295.871    -- CPU_ReadMem(4 bytes @ 0xE000E004)
T3C18 000:296.238   Data:  01 00 00 00
T3C18 000:296.245 - 0.382ms returns 1
T3C18 000:296.270 JLINK_WriteMemEx(0xE0001000, 0x001C Bytes, ..., Flags = 0x02000004)
T3C18 000:296.275   Data:  01 00 00 00 00 00 00 00 00 00 00 00 00 00 00 00 ...
T3C18 000:296.515    -- CPU_WriteMem(28 bytes @ 0xE0001000)
T3C18 000:296.967 - 0.702ms returns 0x1C
T3C18 000:297.008 JLINK_ReadReg(R15 (PC))
T3C18 000:297.014 - 0.008ms returns 0x080020DC
T3C18 000:297.018 JLINK_ReadReg(XPSR)
T3C18 000:297.022 - 0.005ms returns 0x81000000
T3C18 000:299.479   JLINK_ReadMemEx(0xE0001004, 0x0004 Bytes, ..., Flags = 0x02000000)
T3C18 000:299.496   Data:  00 00 00 00
T3C18 000:299.502    - DWT_CYCCNT
T3C18 000:299.506 - 0.030ms returns 0x04
T3C18 001:270.267 JLINK_ReadReg(R0)
T3C18 001:270.814 - 0.560ms returns 0x00249F00
T3C18 001:270.870 JLINK_ReadReg(R1)
T3C18 001:270.877 - 0.008ms returns 0xE000E000
T3C18 001:270.881 JLINK_ReadReg(R2)
T3C18 001:270.885 - 0.005ms returns 0x00000BA2
T3C18 001:270.890 JLINK_ReadReg(R3)
T3C18 001:270.893 - 0.005ms returns 0x0012FCC7
T3C18 001:270.898 JLINK_ReadReg(R4)
T3C18 001:270.902 - 0.005ms returns 0x00000BB4
T3C18 001:270.906 JLINK_ReadReg(R5)
T3C18 001:270.910 - 0.005ms returns 0x00005DBF
T3C18 001:270.914 JLINK_ReadReg(R6)
T3C18 001:270.918 - 0.005ms returns 0x00000000
T3C18 001:270.922 JLINK_ReadReg(R7)
T3C18 001:270.926 - 0.005ms returns 0x00000000
T3C18 001:270.930 JLINK_ReadReg(R8)
T3C18 001:270.934 - 0.005ms returns 0x00000000
T3C18 001:270.938 JLINK_ReadReg(R9)
T3C18 001:270.942 - 0.005ms returns 0x00000000
T3C18 001:270.946 JLINK_ReadReg(R10)
T3C18 001:270.950 - 0.005ms returns 0x00000000
T3C18 001:270.955 JLINK_ReadReg(R11)
T3C18 001:270.958 - 0.005ms returns 0x00000000
T3C18 001:270.963 JLINK_ReadReg(R12)
T3C18 001:270.966 - 0.005ms returns 0x00000000
T3C18 001:270.971 JLINK_ReadReg(R13 (SP))
T3C18 001:270.975 - 0.005ms returns 0x20003FCC
T3C18 001:270.983 JLINK_ReadReg(R14)
T3C18 001:270.988 - 0.007ms returns 0x08002F6F
T3C18 001:270.992 JLINK_ReadReg(R15 (PC))
T3C18 001:270.996 - 0.005ms returns 0x080020DC
T3C18 001:271.001 JLINK_ReadReg(XPSR)
T3C18 001:271.005 - 0.005ms returns 0x81000000
T3C18 001:271.009 JLINK_ReadReg(MSP)
T3C18 001:271.013 - 0.005ms returns 0x20003FCC
T3C18 001:271.017 JLINK_ReadReg(PSP)
T3C18 001:271.021 - 0.005ms returns 0x00000000
T3C18 001:271.025 JLINK_ReadReg(CFBP)
T3C18 001:271.029 - 0.005ms returns 0x00000000
T3C18 001:271.033 JLINK_ReadReg(FPSCR)
T3C18 001:274.111 - 3.095ms returns 0x00000000
T3C18 001:274.154 JLINK_ReadReg(FPS0)
T3C18 001:274.162 - 0.010ms returns 0x00000000
T3C18 001:274.167 JLINK_ReadReg(FPS1)
T3C18 001:274.170 - 0.005ms returns 0x00000000
T3C18 001:274.175 JLINK_ReadReg(FPS2)
T3C18 001:274.179 - 0.005ms returns 0x00000000
T3C18 001:274.183 JLINK_ReadReg(FPS3)
T3C18 001:274.187 - 0.005ms returns 0x00000000
T3C18 001:274.191 JLINK_ReadReg(FPS4)
T3C18 001:274.195 - 0.005ms returns 0x00000000
T3C18 001:274.199 JLINK_ReadReg(FPS5)
T3C18 001:274.203 - 0.005ms returns 0x00000000
T3C18 001:274.208 JLINK_ReadReg(FPS6)
T3C18 001:274.211 - 0.005ms returns 0x00000000
T3C18 001:274.216 JLINK_ReadReg(FPS7)
T3C18 001:274.219 - 0.005ms returns 0x00000000
T3C18 001:274.224 JLINK_ReadReg(FPS8)
T3C18 001:274.227 - 0.005ms returns 0x00000000
T3C18 001:274.232 JLINK_ReadReg(FPS9)
T3C18 001:274.235 - 0.005ms returns 0x00000000
T3C18 001:274.240 JLINK_ReadReg(FPS10)
T3C18 001:274.243 - 0.005ms returns 0x00000000
T3C18 001:274.248 JLINK_ReadReg(FPS11)
T3C18 001:274.251 - 0.005ms returns 0x00000000
T3C18 001:274.256 JLINK_ReadReg(FPS12)
T3C18 001:274.259 - 0.005ms returns 0x00000000
T3C18 001:274.264 JLINK_ReadReg(FPS13)
T3C18 001:274.267 - 0.005ms returns 0x00000000
T3C18 001:274.272 JLINK_ReadReg(FPS14)
T3C18 001:274.276 - 0.005ms returns 0x00000000
T3C18 001:274.280 JLINK_ReadReg(FPS15)
T3C18 001:274.283 - 0.005ms returns 0x00000000
T3C18 001:274.288 JLINK_ReadReg(FPS16)
T3C18 001:274.291 - 0.005ms returns 0x00000000
T3C18 001:274.296 JLINK_ReadReg(FPS17)
T3C18 001:274.299 - 0.005ms returns 0x00000000
T3C18 001:274.304 JLINK_ReadReg(FPS18)
T3C18 001:274.308 - 0.005ms returns 0x00000000
T3C18 001:274.312 JLINK_ReadReg(FPS19)
T3C18 001:274.316 - 0.005ms returns 0x00000000
T3C18 001:274.320 JLINK_ReadReg(FPS20)
T3C18 001:274.324 - 0.005ms returns 0x00000000
T3C18 001:274.328 JLINK_ReadReg(FPS21)
T3C18 001:274.331 - 0.005ms returns 0x00000000
T3C18 001:274.336 JLINK_ReadReg(FPS22)
T3C18 001:274.340 - 0.005ms returns 0x00000000
T3C18 001:274.344 JLINK_ReadReg(FPS23)
T3C18 001:274.348 - 0.005ms returns 0x00000000
T3C18 001:274.352 JLINK_ReadReg(FPS24)
T3C18 001:274.356 - 0.005ms returns 0x00000000
T3C18 001:274.360 JLINK_ReadReg(FPS25)
T3C18 001:274.364 - 0.005ms returns 0x00000000
T3C18 001:274.368 JLINK_ReadReg(FPS26)
T3C18 001:274.372 - 0.005ms returns 0x00000000
T3C18 001:274.376 JLINK_ReadReg(FPS27)
T3C18 001:274.380 - 0.005ms returns 0x00000000
T3C18 001:274.384 JLINK_ReadReg(FPS28)
T3C18 001:274.388 - 0.005ms returns 0x00000000
T3C18 001:274.392 JLINK_ReadReg(FPS29)
T3C18 001:274.396 - 0.005ms returns 0x00000000
T3C18 001:274.400 JLINK_ReadReg(FPS30)
T3C18 001:274.404 - 0.005ms returns 0x00000000
T3C18 001:274.408 JLINK_ReadReg(FPS31)
T3C18 001:274.412 - 0.005ms returns 0x00000000
T3C18 001:274.464   JLINK_ReadMemEx(0x08000200, 0x02D0 Bytes, ..., Flags = 0x02000000)
T3C18 001:274.475    -- CPU_ReadMem(720 bytes @ 0x08000200)
T3C18 001:277.081   Data:  20 05 0E F1 20 0E 01 2A 03 FA 0E FC 28 BF 4C F0 ...
T3C18 001:277.089 - 2.627ms returns 0x2D0
T3C18 001:279.781   JLINK_ReadMemEx(0x08000200, 0x02D0 Bytes, ..., Flags = 0x02000000)
T3C18 001:279.808    -- CPU_ReadMem(720 bytes @ 0x08000200)
T3C18 001:282.404   Data:  20 05 0E F1 20 0E 01 2A 03 FA 0E FC 28 BF 4C F0 ...
T3C18 001:282.420 - 2.641ms returns 0x2D0
T3C18 001:282.822   JLINK_ReadMemEx(0x08000200, 0x02D0 Bytes, ..., Flags = 0x02000000)
T3C18 001:282.836    -- CPU_ReadMem(720 bytes @ 0x08000200)
T3C18 001:285.435   Data:  20 05 0E F1 20 0E 01 2A 03 FA 0E FC 28 BF 4C F0 ...
T3C18 001:285.446 - 2.626ms returns 0x2D0
T3C18 001:526.530   JLINK_ReadMemEx(0x080020DC, 0x0002 Bytes, ..., Flags = 0x02000000)
T3C18 001:526.567    -- CPU_ReadMem(2 bytes @ 0x080020DC)
T3C18 001:527.096   Data:  14 46
T3C18 001:527.113 - 0.586ms returns 0x02
T3C18 001:527.166   JLINK_ReadMemEx(0x080020DE, 0x0002 Bytes, ..., Flags = 0x02000000)
T3C18 001:527.178    -- CPU_ReadMem(2 bytes @ 0x080020DE)
T3C18 001:527.651   Data:  F3 E7
T3C18 001:527.664 - 0.500ms returns 0x02
T3C18 001:527.991   JLINK_ReadMemEx(0x080020DE, 0x0002 Bytes, ..., Flags = 0x02000000)
T3C18 001:528.003    -- CPU_ReadMem(2 bytes @ 0x080020DE)
T3C18 001:528.465   Data:  F3 E7
T3C18 001:528.478 - 0.488ms returns 0x02
T3C18 001:528.499   JLINK_ReadMemEx(0x080020E0, 0x0002 Bytes, ..., Flags = 0x02000000)
T3C18 001:528.506    -- CPU_ReadMem(2 bytes @ 0x080020E0)
T3C18 001:528.900   Data:  94 07
T3C18 001:528.910 - 0.413ms returns 0x02
T3C18 001:528.935   JLINK_ReadMemEx(0x080020E0, 0x0002 Bytes, ..., Flags = 0x02000000)
T3C18 001:528.942    -- CPU_ReadMem(2 bytes @ 0x080020E0)
T3C18 001:529.303   Data:  94 07
T3C18 001:529.313 - 0.380ms returns 0x02
T3C18 001:529.333   JLINK_ReadMemEx(0x080020E2, 0x0002 Bytes, ..., Flags = 0x02000000)
T3C18 001:529.339    -- CPU_ReadMem(2 bytes @ 0x080020E2)
T3C18 001:529.700   Data:  00 20
T3C18 001:529.711 - 0.379ms returns 0x02
T3C18 001:529.758   JLINK_ReadMemEx(0x080020E2, 0x0002 Bytes, ..., Flags = 0x02000000)
T3C18 001:529.768    -- CPU_ReadMem(2 bytes @ 0x080020E2)
T3C18 001:530.158   Data:  00 20
T3C18 001:530.164 - 0.409ms returns 0x02
T3C18 001:530.185   JLINK_ReadMemEx(0x080020E4, 0x0002 Bytes, ..., Flags = 0x02000000)
T3C18 001:530.192    -- CPU_ReadMem(2 bytes @ 0x080020E4)
T3C18 001:530.627   Data:  4F F4
T3C18 001:530.637 - 0.453ms returns 0x02
T3C18 001:530.674   JLINK_ReadMemEx(0x080020E4, 0x0002 Bytes, ..., Flags = 0x02000000)
T3C18 001:530.682    -- CPU_ReadMem(2 bytes @ 0x080020E4)
T3C18 001:531.055   Data:  4F F4
T3C18 001:531.066 - 0.394ms returns 0x02
T3C18 001:531.086   JLINK_ReadMemEx(0x080020E6, 0x0002 Bytes, ..., Flags = 0x02000000)
T3C18 001:531.092    -- CPU_ReadMem(2 bytes @ 0x080020E6)
T3C18 001:531.451   Data:  7A 73
T3C18 001:531.462 - 0.378ms returns 0x02
T3C18 001:834.414   JLINK_ReadMemEx(0x08000000, 0x0004 Bytes, ..., Flags = 0x02000000)
T3C18 001:834.439    -- CPU_ReadMem(4 bytes @ 0x08000000)
T3C18 001:834.964   Data:  00 40 00 20
T3C18 001:834.971 - 0.560ms returns 0x04
T3C18 001:835.000 JLINK_WriteReg(R13 (SP), 0x20004000)
T3C18 001:835.012 - 0.014ms returns 0x00
T3C18 001:835.019 JLINK_ReadReg(R0)
T3C18 001:835.404 - 0.396ms returns 0x00249F00
T3C18 001:835.454 JLINK_ReadReg(R1)
T3C18 001:835.459 - 0.007ms returns 0xE000E000
T3C18 001:835.464 JLINK_ReadReg(R2)
T3C18 001:835.468 - 0.005ms returns 0x00000BA2
T3C18 001:835.472 JLINK_ReadReg(R3)
T3C18 001:835.476 - 0.005ms returns 0x0012FCC7
T3C18 001:835.481 JLINK_ReadReg(R4)
T3C18 001:835.484 - 0.005ms returns 0x00000BB4
T3C18 001:835.489 JLINK_ReadReg(R5)
T3C18 001:835.492 - 0.005ms returns 0x00005DBF
T3C18 001:835.497 JLINK_ReadReg(R6)
T3C18 001:835.501 - 0.005ms returns 0x00000000
T3C18 001:835.505 JLINK_ReadReg(R7)
T3C18 001:835.509 - 0.005ms returns 0x00000000
T3C18 001:835.513 JLINK_ReadReg(R8)
T3C18 001:835.517 - 0.005ms returns 0x00000000
T3C18 001:835.521 JLINK_ReadReg(R9)
T3C18 001:835.525 - 0.005ms returns 0x00000000
T3C18 001:835.529 JLINK_ReadReg(R10)
T3C18 001:835.533 - 0.005ms returns 0x00000000
T3C18 001:835.538 JLINK_ReadReg(R11)
T3C18 001:835.541 - 0.005ms returns 0x00000000
T3C18 001:835.546 JLINK_ReadReg(R12)
T3C18 001:835.549 - 0.005ms returns 0x00000000
T3C18 001:835.554 JLINK_ReadReg(R13 (SP))
T3C18 001:835.558 - 0.005ms returns 0x20004000
T3C18 001:835.562 JLINK_ReadReg(R14)
T3C18 001:835.566 - 0.005ms returns 0x08002F6F
T3C18 001:835.570 JLINK_ReadReg(R15 (PC))
T3C18 001:835.574 - 0.005ms returns 0x080020DC
T3C18 001:835.579 JLINK_ReadReg(XPSR)
T3C18 001:835.586 - 0.009ms returns 0x81000000
T3C18 001:835.591 JLINK_ReadReg(MSP)
T3C18 001:835.595 - 0.005ms returns 0x20004000
T3C18 001:835.599 JLINK_ReadReg(PSP)
T3C18 001:835.603 - 0.005ms returns 0x00000000
T3C18 001:835.607 JLINK_ReadReg(CFBP)
T3C18 001:835.611 - 0.008ms returns 0x00000000
T3C18 001:835.619 JLINK_ReadReg(FPSCR)
T3C18 001:835.623 - 0.005ms returns 0x00000000
T3C18 001:835.628 JLINK_ReadReg(FPS0)
T3C18 001:835.631 - 0.005ms returns 0x00000000
T3C18 001:835.636 JLINK_ReadReg(FPS1)
T3C18 001:835.639 - 0.005ms returns 0x00000000
T3C18 001:835.644 JLINK_ReadReg(FPS2)
T3C18 001:835.648 - 0.005ms returns 0x00000000
T3C18 001:835.652 JLINK_ReadReg(FPS3)
T3C18 001:835.656 - 0.005ms returns 0x00000000
T3C18 001:835.660 JLINK_ReadReg(FPS4)
T3C18 001:835.664 - 0.005ms returns 0x00000000
T3C18 001:835.668 JLINK_ReadReg(FPS5)
T3C18 001:835.672 - 0.005ms returns 0x00000000
T3C18 001:835.677 JLINK_ReadReg(FPS6)
T3C18 001:835.680 - 0.005ms returns 0x00000000
T3C18 001:835.685 JLINK_ReadReg(FPS7)
T3C18 001:835.688 - 0.005ms returns 0x00000000
T3C18 001:835.693 JLINK_ReadReg(FPS8)
T3C18 001:835.697 - 0.005ms returns 0x00000000
T3C18 001:835.701 JLINK_ReadReg(FPS9)
T3C18 001:835.705 - 0.005ms returns 0x00000000
T3C18 001:835.709 JLINK_ReadReg(FPS10)
T3C18 001:835.713 - 0.005ms returns 0x00000000
T3C18 001:835.718 JLINK_ReadReg(FPS11)
T3C18 001:835.721 - 0.005ms returns 0x00000000
T3C18 001:835.725 JLINK_ReadReg(FPS12)
T3C18 001:835.729 - 0.005ms returns 0x00000000
T3C18 001:835.734 JLINK_ReadReg(FPS13)
T3C18 001:835.737 - 0.005ms returns 0x00000000
T3C18 001:835.742 JLINK_ReadReg(FPS14)
T3C18 001:835.745 - 0.005ms returns 0x00000000
T3C18 001:835.750 JLINK_ReadReg(FPS15)
T3C18 001:835.754 - 0.005ms returns 0x00000000
T3C18 001:835.758 JLINK_ReadReg(FPS16)
T3C18 001:835.762 - 0.005ms returns 0x00000000
T3C18 001:835.766 JLINK_ReadReg(FPS17)
T3C18 001:835.770 - 0.005ms returns 0x00000000
T3C18 001:835.774 JLINK_ReadReg(FPS18)
T3C18 001:835.778 - 0.005ms returns 0x00000000
T3C18 001:835.782 JLINK_ReadReg(FPS19)
T3C18 001:835.786 - 0.005ms returns 0x00000000
T3C18 001:835.790 JLINK_ReadReg(FPS20)
T3C18 001:835.794 - 0.005ms returns 0x00000000
T3C18 001:835.798 JLINK_ReadReg(FPS21)
T3C18 001:835.802 - 0.005ms returns 0x00000000
T3C18 001:835.806 JLINK_ReadReg(FPS22)
T3C18 001:835.810 - 0.005ms returns 0x00000000
T3C18 001:835.814 JLINK_ReadReg(FPS23)
T3C18 001:835.818 - 0.005ms returns 0x00000000
T3C18 001:835.822 JLINK_ReadReg(FPS24)
T3C18 001:835.826 - 0.005ms returns 0x00000000
T3C18 001:835.830 JLINK_ReadReg(FPS25)
T3C18 001:835.834 - 0.005ms returns 0x00000000
T3C18 001:835.838 JLINK_ReadReg(FPS26)
T3C18 001:835.842 - 0.005ms returns 0x00000000
T3C18 001:835.847 JLINK_ReadReg(FPS27)
T3C18 001:835.850 - 0.005ms returns 0x00000000
T3C18 001:835.855 JLINK_ReadReg(FPS28)
T3C18 001:835.858 - 0.005ms returns 0x00000000
T3C18 001:835.863 JLINK_ReadReg(FPS29)
T3C18 001:835.866 - 0.005ms returns 0x00000000
T3C18 001:835.871 JLINK_ReadReg(FPS30)
T3C18 001:835.875 - 0.005ms returns 0x00000000
T3C18 001:835.879 JLINK_ReadReg(FPS31)
T3C18 001:835.883 - 0.005ms returns 0x00000000
T3C18 001:835.890   JLINK_ReadMemEx(0x08000004, 0x0004 Bytes, ..., Flags = 0x02000000)
T3C18 001:835.901    -- CPU_ReadMem(4 bytes @ 0x08000004)
T3C18 001:836.329   Data:  DD 0F 00 08
T3C18 001:836.340 - 0.451ms returns 0x04
T3C18 001:836.374 JLINK_WriteReg(R15 (PC), 0x08000FDC)
T3C18 001:836.380 - 0.008ms returns 0x00
T3C18 001:836.387 JLINK_ReadReg(R0)
T3C18 001:836.391 - 0.006ms returns 0x00249F00
T3C18 001:836.396 JLINK_ReadReg(R1)
T3C18 001:836.399 - 0.005ms returns 0xE000E000
T3C18 001:836.404 JLINK_ReadReg(R2)
T3C18 001:836.408 - 0.005ms returns 0x00000BA2
T3C18 001:836.412 JLINK_ReadReg(R3)
T3C18 001:836.416 - 0.005ms returns 0x0012FCC7
T3C18 001:836.420 JLINK_ReadReg(R4)
T3C18 001:836.424 - 0.005ms returns 0x00000BB4
T3C18 001:836.428 JLINK_ReadReg(R5)
T3C18 001:836.432 - 0.005ms returns 0x00005DBF
T3C18 001:836.436 JLINK_ReadReg(R6)
T3C18 001:836.442 - 0.008ms returns 0x00000000
T3C18 001:836.448 JLINK_ReadReg(R7)
T3C18 001:836.452 - 0.005ms returns 0x00000000
T3C18 001:836.456 JLINK_ReadReg(R8)
T3C18 001:836.460 - 0.005ms returns 0x00000000
T3C18 001:836.464 JLINK_ReadReg(R9)
T3C18 001:836.468 - 0.005ms returns 0x00000000
T3C18 001:836.473 JLINK_ReadReg(R10)
T3C18 001:836.476 - 0.005ms returns 0x00000000
T3C18 001:836.481 JLINK_ReadReg(R11)
T3C18 001:836.484 - 0.005ms returns 0x00000000
T3C18 001:836.489 JLINK_ReadReg(R12)
T3C18 001:836.492 - 0.005ms returns 0x00000000
T3C18 001:836.497 JLINK_ReadReg(R13 (SP))
T3C18 001:836.501 - 0.005ms returns 0x20004000
T3C18 001:836.509 JLINK_ReadReg(R14)
T3C18 001:836.513 - 0.005ms returns 0x08002F6F
T3C18 001:836.517 JLINK_ReadReg(R15 (PC))
T3C18 001:836.521 - 0.005ms returns 0x08000FDC
T3C18 001:836.525 JLINK_ReadReg(XPSR)
T3C18 001:836.529 - 0.005ms returns 0x81000000
T3C18 001:836.534 JLINK_ReadReg(MSP)
T3C18 001:836.537 - 0.005ms returns 0x20004000
T3C18 001:836.542 JLINK_ReadReg(PSP)
T3C18 001:836.545 - 0.005ms returns 0x00000000
T3C18 001:836.550 JLINK_ReadReg(CFBP)
T3C18 001:836.553 - 0.005ms returns 0x00000000
T3C18 001:836.558 JLINK_ReadReg(FPSCR)
T3C18 001:836.562 - 0.005ms returns 0x00000000
T3C18 001:836.566 JLINK_ReadReg(FPS0)
T3C18 001:836.570 - 0.005ms returns 0x00000000
T3C18 001:836.574 JLINK_ReadReg(FPS1)
T3C18 001:836.578 - 0.005ms returns 0x00000000
T3C18 001:836.582 JLINK_ReadReg(FPS2)
T3C18 001:836.586 - 0.005ms returns 0x00000000
T3C18 001:836.591 JLINK_ReadReg(FPS3)
T3C18 001:836.594 - 0.005ms returns 0x00000000
T3C18 001:836.599 JLINK_ReadReg(FPS4)
T3C18 001:836.602 - 0.005ms returns 0x00000000
T3C18 001:836.607 JLINK_ReadReg(FPS5)
T3C18 001:836.611 - 0.005ms returns 0x00000000
T3C18 001:836.615 JLINK_ReadReg(FPS6)
T3C18 001:836.619 - 0.005ms returns 0x00000000
T3C18 001:836.623 JLINK_ReadReg(FPS7)
T3C18 001:836.627 - 0.005ms returns 0x00000000
T3C18 001:836.631 JLINK_ReadReg(FPS8)
T3C18 001:836.635 - 0.005ms returns 0x00000000
T3C18 001:836.639 JLINK_ReadReg(FPS9)
T3C18 001:836.643 - 0.005ms returns 0x00000000
T3C18 001:836.647 JLINK_ReadReg(FPS10)
T3C18 001:836.651 - 0.005ms returns 0x00000000
T3C18 001:836.655 JLINK_ReadReg(FPS11)
T3C18 001:836.659 - 0.005ms returns 0x00000000
T3C18 001:836.663 JLINK_ReadReg(FPS12)
T3C18 001:836.667 - 0.005ms returns 0x00000000
T3C18 001:836.671 JLINK_ReadReg(FPS13)
T3C18 001:836.675 - 0.005ms returns 0x00000000
T3C18 001:836.680 JLINK_ReadReg(FPS14)
T3C18 001:836.683 - 0.005ms returns 0x00000000
T3C18 001:836.688 JLINK_ReadReg(FPS15)
T3C18 001:836.691 - 0.005ms returns 0x00000000
T3C18 001:836.696 JLINK_ReadReg(FPS16)
T3C18 001:836.699 - 0.005ms returns 0x00000000
T3C18 001:836.704 JLINK_ReadReg(FPS17)
T3C18 001:836.707 - 0.005ms returns 0x00000000
T3C18 001:836.712 JLINK_ReadReg(FPS18)
T3C18 001:836.715 - 0.005ms returns 0x00000000
T3C18 001:836.720 JLINK_ReadReg(FPS19)
T3C18 001:836.723 - 0.005ms returns 0x00000000
T3C18 001:836.728 JLINK_ReadReg(FPS20)
T3C18 001:836.731 - 0.005ms returns 0x00000000
T3C18 001:836.736 JLINK_ReadReg(FPS21)
T3C18 001:836.739 - 0.005ms returns 0x00000000
T3C18 001:836.744 JLINK_ReadReg(FPS22)
T3C18 001:836.747 - 0.005ms returns 0x00000000
T3C18 001:836.752 JLINK_ReadReg(FPS23)
T3C18 001:836.755 - 0.005ms returns 0x00000000
T3C18 001:836.760 JLINK_ReadReg(FPS24)
T3C18 001:836.763 - 0.005ms returns 0x00000000
T3C18 001:836.768 JLINK_ReadReg(FPS25)
T3C18 001:836.771 - 0.005ms returns 0x00000000
T3C18 001:836.776 JLINK_ReadReg(FPS26)
T3C18 001:836.779 - 0.005ms returns 0x00000000
T3C18 001:836.784 JLINK_ReadReg(FPS27)
T3C18 001:836.788 - 0.005ms returns 0x00000000
T3C18 001:836.792 JLINK_ReadReg(FPS28)
T3C18 001:836.796 - 0.005ms returns 0x00000000
T3C18 001:836.800 JLINK_ReadReg(FPS29)
T3C18 001:836.804 - 0.005ms returns 0x00000000
T3C18 001:836.808 JLINK_ReadReg(FPS30)
T3C18 001:836.812 - 0.005ms returns 0x00000000
T3C18 001:836.816 JLINK_ReadReg(FPS31)
T3C18 001:836.820 - 0.005ms returns 0x00000000
T3C18 001:836.825 JLINK_WriteMemEx(0xE000ED08, 0x0004 Bytes, ..., Flags = 0x02000000)
T3C18 001:836.831   Data:  00 00 00 08
T3C18 001:836.841    -- CPU_WriteMem(4 bytes @ 0xE000ED08)
T3C18 001:837.280 - 0.462ms returns 0x04
T2A28 001:845.263   JLINK_ReadMemEx(0x08000FDC, 0x0002 Bytes, ..., Flags = 0x02000000)
T2A28 001:845.292    -- CPU_ReadMem(2 bytes @ 0x08000FDC)
T2A28 001:845.819   Data:  00 21
T2A28 001:845.833 - 0.573ms returns 0x02
T2A28 001:845.879   JLINK_SetBPEx(Addr = 0x08002EFC, Type = 0xFFFFFFF2)
T2A28 001:845.889 - 0.011ms returns 0x00000001
T2A28 001:845.896 JLINK_Go()
T2A28 001:845.914    -- CPU_WriteMem(4 bytes @ 0xE0002000)
T2A28 001:846.325    -- CPU_ReadMem(4 bytes @ 0xE0001000)
T2A28 001:846.693    -- CPU_WriteMem(4 bytes @ 0xE0002008)
T2A28 001:846.700    -- CPU_WriteMem(4 bytes @ 0xE000200C)
T2A28 001:846.706    -- CPU_WriteMem(4 bytes @ 0xE0002010)
T2A28 001:846.711    -- CPU_WriteMem(4 bytes @ 0xE0002014)
T2A28 001:846.716    -- CPU_WriteMem(4 bytes @ 0xE0002018)
T2A28 001:846.721    -- CPU_WriteMem(4 bytes @ 0xE000201C)
T2A28 001:847.586    -- CPU_WriteMem(4 bytes @ 0xE0001004)
T2A28 001:848.937 - 3.049ms
T2A28 001:949.348 JLINK_IsHalted()
T2A28 001:951.254 - 1.916ms returns TRUE
T2A28 001:951.307 JLINK_Halt()
T2A28 001:951.318 - 0.013ms returns 0x00
T2A28 001:951.323 JLINK_IsHalted()
T2A28 001:951.327 - 0.005ms returns TRUE
T2A28 001:951.331 JLINK_IsHalted()
T2A28 001:951.335 - 0.005ms returns TRUE
T2A28 001:951.339 JLINK_IsHalted()
T2A28 001:951.343 - 0.005ms returns TRUE
T2A28 001:951.349 JLINK_ReadReg(R15 (PC))
T2A28 001:951.356 - 0.008ms returns 0x08002EFC
T2A28 001:951.361 JLINK_ReadReg(XPSR)
T2A28 001:951.365 - 0.005ms returns 0x61000000
T2A28 001:951.374 JLINK_ClrBPEx(BPHandle = 0x00000001)
T2A28 001:951.378 - 0.009ms returns 0x00
T2A28 001:951.389   JLINK_ReadMemU32(0xE000ED30, 0x0001 Items, ...)
T2A28 001:951.398    -- CPU_ReadMem(4 bytes @ 0xE000ED30)
T2A28 001:951.659   Data:  02 00 00 00
T2A28 001:951.669 - 0.282ms returns 1
T2A28 001:951.694   JLINK_ReadMemU32(0xE0001028, 0x0001 Items, ...)
T2A28 001:951.703    -- CPU_ReadMem(4 bytes @ 0xE0001028)
T2A28 001:951.958   Data:  00 00 00 00
T2A28 001:951.964    - DWT_FUNC[0]
T2A28 001:951.969 - 0.277ms returns 1
T2A28 001:951.989   JLINK_ReadMemU32(0xE0001038, 0x0001 Items, ...)
T2A28 001:951.996    -- CPU_ReadMem(4 bytes @ 0xE0001038)
T2A28 001:952.233   Data:  00 02 00 00
T2A28 001:952.238    - DWT_FUNC[1]
T2A28 001:952.243 - 0.256ms returns 1
T2A28 001:952.262   JLINK_ReadMemU32(0xE0001048, 0x0001 Items, ...)
T2A28 001:952.269    -- CPU_ReadMem(4 bytes @ 0xE0001048)
T2A28 001:952.525   Data:  00 00 00 00
T2A28 001:952.530    - DWT_FUNC[2]
T2A28 001:952.535 - 0.274ms returns 1
T2A28 001:952.555   JLINK_ReadMemU32(0xE0001058, 0x0001 Items, ...)
T2A28 001:952.562    -- CPU_ReadMem(4 bytes @ 0xE0001058)
T2A28 001:952.810   Data:  00 00 00 00
T2A28 001:952.816    - DWT_FUNC[3]
T2A28 001:952.820 - 0.267ms returns 1
T2A28 001:952.880 JLINK_ReadReg(R0)
T2A28 001:952.886 - 0.007ms returns 0x00005DBF
T2A28 001:952.890 JLINK_ReadReg(R1)
T2A28 001:952.894 - 0.005ms returns 0x000000E0
T2A28 001:952.899 JLINK_ReadReg(R2)
T2A28 001:952.902 - 0.005ms returns 0x00000007
T2A28 001:952.907 JLINK_ReadReg(R3)
T2A28 001:952.910 - 0.005ms returns 0x08000125
T2A28 001:952.915 JLINK_ReadReg(R4)
T2A28 001:952.918 - 0.005ms returns 0x00000BB4
T2A28 001:952.923 JLINK_ReadReg(R5)
T2A28 001:952.926 - 0.005ms returns 0x00005DBF
T2A28 001:952.931 JLINK_ReadReg(R6)
T2A28 001:952.934 - 0.005ms returns 0x00000000
T2A28 001:952.939 JLINK_ReadReg(R7)
T2A28 001:952.943 - 0.005ms returns 0x00000000
T2A28 001:952.947 JLINK_ReadReg(R8)
T2A28 001:952.951 - 0.005ms returns 0x00000000
T2A28 001:952.955 JLINK_ReadReg(R9)
T2A28 001:952.959 - 0.005ms returns 0x00000000
T2A28 001:952.963 JLINK_ReadReg(R10)
T2A28 001:952.967 - 0.005ms returns 0x00000000
T2A28 001:952.971 JLINK_ReadReg(R11)
T2A28 001:952.975 - 0.005ms returns 0x00000000
T2A28 001:952.979 JLINK_ReadReg(R12)
T2A28 001:952.983 - 0.005ms returns 0x00000000
T2A28 001:953.025 JLINK_ReadReg(R13 (SP))
T2A28 001:953.032 - 0.008ms returns 0x20004000
T2A28 001:953.036 JLINK_ReadReg(R14)
T2A28 001:953.040 - 0.005ms returns 0x0800100F
T2A28 001:953.044 JLINK_ReadReg(R15 (PC))
T2A28 001:953.048 - 0.005ms returns 0x08002EFC
T2A28 001:953.053 JLINK_ReadReg(XPSR)
T2A28 001:953.056 - 0.005ms returns 0x61000000
T2A28 001:953.061 JLINK_ReadReg(MSP)
T2A28 001:953.064 - 0.005ms returns 0x20004000
T2A28 001:953.069 JLINK_ReadReg(PSP)
T2A28 001:953.072 - 0.005ms returns 0x00000000
T2A28 001:953.077 JLINK_ReadReg(CFBP)
T2A28 001:953.080 - 0.005ms returns 0x00000000
T2A28 001:953.085 JLINK_ReadReg(FPSCR)
T2A28 001:955.788 - 2.706ms returns 0x00000000
T2A28 001:955.810 JLINK_ReadReg(FPS0)
T2A28 001:955.815 - 0.006ms returns 0x00000000
T2A28 001:955.822 JLINK_ReadReg(FPS1)
T2A28 001:955.826 - 0.006ms returns 0x00000000
T2A28 001:955.831 JLINK_ReadReg(FPS2)
T2A28 001:955.835 - 0.005ms returns 0x00000000
T2A28 001:955.841 JLINK_ReadReg(FPS3)
T2A28 001:955.844 - 0.005ms returns 0x00000000
T2A28 001:955.850 JLINK_ReadReg(FPS4)
T2A28 001:955.854 - 0.005ms returns 0x00000000
T2A28 001:955.859 JLINK_ReadReg(FPS5)
T2A28 001:955.863 - 0.005ms returns 0x00000000
T2A28 001:955.868 JLINK_ReadReg(FPS6)
T2A28 001:955.872 - 0.005ms returns 0x00000000
T2A28 001:955.877 JLINK_ReadReg(FPS7)
T2A28 001:955.881 - 0.005ms returns 0x00000000
T2A28 001:955.886 JLINK_ReadReg(FPS8)
T2A28 001:955.890 - 0.005ms returns 0x00000000
T2A28 001:955.895 JLINK_ReadReg(FPS9)
T2A28 001:955.899 - 0.005ms returns 0x00000000
T2A28 001:955.904 JLINK_ReadReg(FPS10)
T2A28 001:955.909 - 0.005ms returns 0x00000000
T2A28 001:955.914 JLINK_ReadReg(FPS11)
T2A28 001:955.918 - 0.005ms returns 0x00000000
T2A28 001:955.923 JLINK_ReadReg(FPS12)
T2A28 001:955.927 - 0.005ms returns 0x00000000
T2A28 001:955.932 JLINK_ReadReg(FPS13)
T2A28 001:955.936 - 0.005ms returns 0x00000000
T2A28 001:955.941 JLINK_ReadReg(FPS14)
T2A28 001:955.945 - 0.005ms returns 0x00000000
T2A28 001:955.950 JLINK_ReadReg(FPS15)
T2A28 001:955.954 - 0.005ms returns 0x00000000
T2A28 001:955.959 JLINK_ReadReg(FPS16)
T2A28 001:955.963 - 0.005ms returns 0x00000000
T2A28 001:955.969 JLINK_ReadReg(FPS17)
T2A28 001:955.972 - 0.005ms returns 0x00000000
T2A28 001:955.978 JLINK_ReadReg(FPS18)
T2A28 001:955.981 - 0.005ms returns 0x00000000
T2A28 001:955.987 JLINK_ReadReg(FPS19)
T2A28 001:955.990 - 0.005ms returns 0x00000000
T2A28 001:955.996 JLINK_ReadReg(FPS20)
T2A28 001:955.999 - 0.005ms returns 0x00000000
T2A28 001:956.005 JLINK_ReadReg(FPS21)
T2A28 001:956.008 - 0.005ms returns 0x00000000
T2A28 001:956.013 JLINK_ReadReg(FPS22)
T2A28 001:956.017 - 0.005ms returns 0x00000000
T2A28 001:956.023 JLINK_ReadReg(FPS23)
T2A28 001:956.026 - 0.005ms returns 0x00000000
T2A28 001:956.032 JLINK_ReadReg(FPS24)
T2A28 001:956.035 - 0.005ms returns 0x00000000
T2A28 001:956.041 JLINK_ReadReg(FPS25)
T2A28 001:956.044 - 0.005ms returns 0x00000000
T2A28 001:956.050 JLINK_ReadReg(FPS26)
T2A28 001:956.054 - 0.005ms returns 0x00000000
T2A28 001:956.059 JLINK_ReadReg(FPS27)
T2A28 001:956.063 - 0.005ms returns 0x00000000
T2A28 001:956.068 JLINK_ReadReg(FPS28)
T2A28 001:956.072 - 0.005ms returns 0x00000000
T2A28 001:956.077 JLINK_ReadReg(FPS29)
T2A28 001:956.081 - 0.005ms returns 0x00000000
T2A28 001:956.086 JLINK_ReadReg(FPS30)
T2A28 001:956.090 - 0.005ms returns 0x00000000
T2A28 001:956.095 JLINK_ReadReg(FPS31)
T2A28 001:956.099 - 0.005ms returns 0x00000000
T3C18 001:974.230   JLINK_ReadMemEx(0x08000200, 0x02D0 Bytes, ..., Flags = 0x02000000)
T3C18 001:974.260    -- CPU_ReadMem(768 bytes @ 0x08000200)
T3C18 001:977.078    -- Updating DA cache (768 bytes @ 0x08000200)
T3C18 001:977.114    -- Read from DA cache (720 bytes @ 0x08000200)
T3C18 001:977.121   Data:  20 05 0E F1 20 0E 01 2A 03 FA 0E FC 28 BF 4C F0 ...
T3C18 001:977.126 - 2.899ms returns 0x2D0
T3C18 001:978.209   JLINK_ReadMemEx(0x08002EFC, 0x0002 Bytes, ..., Flags = 0x02000000)
T3C18 001:978.232    -- CPU_ReadMem(64 bytes @ 0x08002EC0)
T3C18 001:978.793    -- Updating DA cache (64 bytes @ 0x08002EC0)
T3C18 001:978.857    -- Read from DA cache (2 bytes @ 0x08002EFC)
T3C18 001:978.862   Data:  30 B5
T3C18 001:978.868 - 0.661ms returns 0x02
T3C18 001:978.912   JLINK_ReadMemEx(0x08002EFE, 0x0002 Bytes, ..., Flags = 0x02000000)
T3C18 001:978.921    -- Read from DA cache (2 bytes @ 0x08002EFE)
T3C18 001:978.926   Data:  01 21
T3C18 001:978.931 - 0.021ms returns 0x02
T3C18 001:978.948   JLINK_ReadMemEx(0x08002EFE, 0x0002 Bytes, ..., Flags = 0x02000000)
T3C18 001:978.954    -- Read from DA cache (2 bytes @ 0x08002EFE)
T3C18 001:978.959   Data:  01 21
T3C18 001:978.964 - 0.017ms returns 0x02
T3C18 001:978.969   JLINK_ReadMemEx(0x08002F00, 0x0002 Bytes, ..., Flags = 0x02000000)
T3C18 001:978.976    -- CPU_ReadMem(64 bytes @ 0x08002F00)
T3C18 001:979.459    -- Updating DA cache (64 bytes @ 0x08002F00)
T3C18 001:979.471    -- Read from DA cache (2 bytes @ 0x08002F00)
T3C18 001:979.476   Data:  87 B0
T3C18 001:979.481 - 0.514ms returns 0x02
T3C18 001:979.515   JLINK_ReadMemEx(0x08002F00, 0x0002 Bytes, ..., Flags = 0x02000000)
T3C18 001:979.522    -- Read from DA cache (2 bytes @ 0x08002F00)
T3C18 001:979.527   Data:  87 B0
T3C18 001:979.532 - 0.019ms returns 0x02
T3C18 001:979.537   JLINK_ReadMemEx(0x08002F02, 0x0002 Bytes, ..., Flags = 0x02000000)
T3C18 001:979.542    -- Read from DA cache (2 bytes @ 0x08002F02)
T3C18 001:979.547   Data:  11 20
T3C18 001:979.552 - 0.017ms returns 0x02
T3C18 001:979.559   JLINK_ReadMemEx(0x08002F02, 0x0002 Bytes, ..., Flags = 0x02000000)
T3C18 001:979.565    -- Read from DA cache (2 bytes @ 0x08002F02)
T3C18 001:979.570   Data:  11 20
T3C18 001:979.574 - 0.017ms returns 0x02
T3C18 001:979.579   JLINK_ReadMemEx(0x08002F04, 0x0002 Bytes, ..., Flags = 0x02000000)
T3C18 001:979.585    -- Read from DA cache (2 bytes @ 0x08002F04)
T3C18 001:979.590   Data:  FF F7
T3C18 001:979.594 - 0.017ms returns 0x02
T3C18 002:036.998   JLINK_ReadMemEx(0x08000000, 0x02D0 Bytes, ..., Flags = 0x02000000)
T3C18 002:037.028    -- CPU_ReadMem(512 bytes @ 0x08000000)
T3C18 002:039.153    -- Updating DA cache (512 bytes @ 0x08000000)
T3C18 002:039.172    -- Read from DA cache (720 bytes @ 0x08000000)
T3C18 002:039.178   Data:  00 40 00 20 DD 0F 00 08 D5 32 00 08 D7 32 00 08 ...
T3C18 002:039.183 - 2.187ms returns 0x2D0
T3C18 002:041.869   JLINK_ReadMemEx(0x08000000, 0x02D0 Bytes, ..., Flags = 0x02000000)
T3C18 002:041.893    -- Read from DA cache (720 bytes @ 0x08000000)
T3C18 002:041.899   Data:  00 40 00 20 DD 0F 00 08 D5 32 00 08 D7 32 00 08 ...
T3C18 002:041.904 - 0.037ms returns 0x2D0
T2A28 002:369.549   JLINK_ReadMemEx(0x08002EFC, 0x0002 Bytes, ..., Flags = 0x02000000)
T2A28 002:369.579    -- Read from DA cache (2 bytes @ 0x08002EFC)
T2A28 002:369.584   Data:  30 B5
T2A28 002:369.590 - 0.043ms returns 0x02
T2A28 002:369.600 JLINK_Go()
T2A28 002:369.614    -- CPU_ReadMem(4 bytes @ 0xE0001000)
T2A28 002:370.146    -- CPU_WriteMem(4 bytes @ 0xE0002008)
T2A28 002:370.922 - 1.325ms
T2A28 002:471.978 JLINK_IsHalted()
T2A28 002:472.499 - 0.527ms returns FALSE
T2A28 002:573.261 JLINK_IsHalted()
T2A28 002:573.813 - 0.555ms returns FALSE
T2A28 002:674.446 JLINK_IsHalted()
T2A28 002:675.011 - 0.567ms returns FALSE
T2A28 002:775.953 JLINK_IsHalted()
T2A28 002:776.481 - 0.532ms returns FALSE
T2A28 002:877.486 JLINK_IsHalted()
T2A28 002:878.059 - 0.577ms returns FALSE
T2A28 002:978.533 JLINK_IsHalted()
T2A28 002:978.995 - 0.466ms returns FALSE
T2A28 003:079.573 JLINK_IsHalted()
T2A28 003:080.107 - 0.547ms returns FALSE
T2A28 003:180.339 JLINK_IsHalted()
T2A28 003:180.866 - 0.530ms returns FALSE
T2A28 003:281.536 JLINK_IsHalted()
T2A28 003:282.048 - 0.523ms returns FALSE
T2A28 003:383.512 JLINK_IsHalted()
T2A28 003:384.126 - 0.618ms returns FALSE
T2A28 003:484.886 JLINK_IsHalted()
T2A28 003:485.437 - 0.558ms returns FALSE
T2A28 003:586.143 JLINK_IsHalted()
T2A28 003:586.766 - 0.636ms returns FALSE
T2A28 003:687.209 JLINK_IsHalted()
T2A28 003:687.750 - 0.545ms returns FALSE
T2A28 003:788.475 JLINK_IsHalted()
T2A28 003:789.091 - 0.626ms returns FALSE
T2A28 003:889.689 JLINK_IsHalted()
T2A28 003:890.254 - 0.575ms returns FALSE
T2A28 003:991.128 JLINK_IsHalted()
T2A28 003:991.710 - 0.591ms returns FALSE
T2A28 004:092.582 JLINK_IsHalted()
T2A28 004:093.177 - 0.599ms returns FALSE
T2A28 004:194.113 JLINK_IsHalted()
T2A28 004:194.654 - 0.547ms returns FALSE
T2A28 004:295.657 JLINK_IsHalted()
T2A28 004:296.226 - 0.574ms returns FALSE
T2A28 004:396.505 JLINK_IsHalted()
T2A28 004:397.047 - 0.554ms returns FALSE
T2A28 004:497.772 JLINK_IsHalted()
T2A28 004:498.327 - 0.559ms returns FALSE
T2A28 004:598.645 JLINK_IsHalted()
T2A28 004:599.208 - 0.576ms returns FALSE
T2A28 004:699.821 JLINK_IsHalted()
T2A28 004:700.249 - 0.439ms returns FALSE
T2A28 004:800.953 JLINK_IsHalted()
T2A28 004:801.476 - 0.526ms returns FALSE
T2A28 004:901.833 JLINK_IsHalted()
T2A28 004:902.366 - 0.536ms returns FALSE
T2A28 005:002.682 JLINK_IsHalted()
T2A28 005:003.202 - 0.524ms returns FALSE
T2A28 005:104.218 JLINK_IsHalted()
T2A28 005:104.759 - 0.545ms returns FALSE
T2A28 005:205.538 JLINK_IsHalted()
T2A28 005:206.073 - 0.539ms returns FALSE
T2A28 005:306.662 JLINK_IsHalted()
T2A28 005:307.283 - 0.631ms returns FALSE
T2A28 005:408.600 JLINK_IsHalted()
T2A28 005:409.304 - 0.707ms returns FALSE
T2A28 005:509.429 JLINK_IsHalted()
T2A28 005:509.953 - 0.531ms returns FALSE
T2A28 005:610.507 JLINK_IsHalted()
T2A28 005:611.086 - 0.589ms returns FALSE
T2A28 005:711.551 JLINK_IsHalted()
T2A28 005:712.085 - 0.542ms returns FALSE
T2A28 005:812.417 JLINK_IsHalted()
T2A28 005:812.854 - 0.448ms returns FALSE
T2A28 005:913.426 JLINK_IsHalted()
T2A28 005:913.991 - 0.583ms returns FALSE
T2A28 006:014.477 JLINK_IsHalted()
T2A28 006:014.855 - 0.384ms returns FALSE
T2A28 006:115.866 JLINK_IsHalted()
T2A28 006:116.460 - 0.599ms returns FALSE
T2A28 006:216.755 JLINK_IsHalted()
T2A28 006:217.324 - 0.574ms returns FALSE
T2A28 006:317.612 JLINK_IsHalted()
T2A28 006:318.153 - 0.545ms returns FALSE
T2A28 006:418.613 JLINK_IsHalted()
T2A28 006:419.125 - 0.516ms returns FALSE
T2A28 006:519.493 JLINK_IsHalted()
T2A28 006:519.973 - 0.483ms returns FALSE
T2A28 006:620.879 JLINK_IsHalted()
T2A28 006:621.428 - 0.554ms returns FALSE
T2A28 006:721.773 JLINK_IsHalted()
T2A28 006:722.350 - 0.583ms returns FALSE
T2A28 006:823.331 JLINK_IsHalted()
T2A28 006:823.932 - 0.606ms returns FALSE
T2A28 006:924.668 JLINK_IsHalted()
T2A28 006:925.204 - 0.543ms returns FALSE
T2A28 007:025.998 JLINK_IsHalted()
T2A28 007:026.654 - 0.659ms returns FALSE
T2A28 007:127.692 JLINK_IsHalted()
T2A28 007:128.355 - 0.679ms returns FALSE
T2A28 007:229.424 JLINK_IsHalted()
T2A28 007:229.929 - 0.518ms returns FALSE
T2A28 007:331.315 JLINK_IsHalted()
T2A28 007:331.802 - 0.505ms returns FALSE
T2A28 007:432.827 JLINK_IsHalted()
T2A28 007:433.250 - 0.426ms returns FALSE
T2A28 007:533.909 JLINK_IsHalted()
T2A28 007:534.478 - 0.573ms returns FALSE
T2A28 007:635.109 JLINK_IsHalted()
T2A28 007:635.686 - 0.588ms returns FALSE
T2A28 007:736.606 JLINK_IsHalted()
T2A28 007:737.100 - 0.498ms returns FALSE
T2A28 007:837.503 JLINK_IsHalted()
T2A28 007:838.080 - 0.589ms returns FALSE
T2A28 007:938.765 JLINK_IsHalted()
T2A28 007:939.300 - 0.545ms returns FALSE
T2A28 008:039.619 JLINK_IsHalted()
T2A28 008:040.126 - 0.510ms returns FALSE
T2A28 008:140.866 JLINK_IsHalted()
T2A28 008:141.385 - 0.522ms returns FALSE
T2A28 008:241.555 JLINK_IsHalted()
T2A28 008:242.124 - 0.588ms returns FALSE
T2A28 008:342.535 JLINK_IsHalted()
T2A28 008:343.226 - 0.697ms returns FALSE
T2A28 008:443.904 JLINK_IsHalted()
T2A28 008:444.632 - 0.749ms returns FALSE
T2A28 008:544.912 JLINK_IsHalted()
T2A28 008:545.348 - 0.461ms returns FALSE
T2A28 008:645.575 JLINK_IsHalted()
T2A28 008:646.112 - 0.551ms returns FALSE
T2A28 008:746.680 JLINK_IsHalted()
T2A28 008:747.194 - 0.531ms returns FALSE
T2A28 008:847.655 JLINK_IsHalted()
T2A28 008:848.210 - 0.561ms returns FALSE
T2A28 008:948.461 JLINK_IsHalted()
T2A28 008:949.019 - 0.572ms returns FALSE
T2A28 009:049.786 JLINK_IsHalted()
T2A28 009:050.262 - 0.490ms returns FALSE
T2A28 009:150.578 JLINK_IsHalted()
T2A28 009:151.173 - 0.610ms returns FALSE
T2A28 009:251.928 JLINK_IsHalted()
T2A28 009:252.447 - 0.536ms returns FALSE
T2A28 009:352.613 JLINK_IsHalted()
T2A28 009:353.167 - 0.575ms returns FALSE
T2A28 009:453.507 JLINK_IsHalted()
T2A28 009:454.037 - 0.538ms returns FALSE
T2A28 009:554.591 JLINK_IsHalted()
T2A28 009:555.124 - 0.542ms returns FALSE
T2A28 009:655.684 JLINK_IsHalted()
T2A28 009:656.159 - 0.487ms returns FALSE
T2A28 009:756.337 JLINK_IsHalted()
T2A28 009:756.950 - 0.627ms returns FALSE
T2A28 009:857.831 JLINK_IsHalted()
T2A28 009:858.385 - 0.572ms returns FALSE
T2A28 009:958.666 JLINK_IsHalted()
T2A28 009:959.153 - 0.497ms returns FALSE
T2A28 010:059.604 JLINK_IsHalted()
T2A28 010:060.138 - 0.542ms returns FALSE
T2A28 010:160.445 JLINK_IsHalted()
T2A28 010:160.816 - 0.379ms returns FALSE
T2A28 010:261.888 JLINK_IsHalted()
T2A28 010:262.423 - 0.544ms returns FALSE
T2A28 010:362.585 JLINK_IsHalted()
T2A28 010:363.098 - 0.523ms returns FALSE
T2A28 010:463.697 JLINK_IsHalted()
T2A28 010:464.291 - 0.613ms returns FALSE
T2A28 010:565.062 JLINK_IsHalted()
T2A28 010:565.634 - 0.592ms returns FALSE
T2A28 010:665.837 JLINK_IsHalted()
T2A28 010:666.384 - 0.559ms returns FALSE
T2A28 010:766.885 JLINK_IsHalted()
T2A28 010:767.315 - 0.459ms returns FALSE
T2A28 010:867.751 JLINK_IsHalted()
T2A28 010:868.362 - 0.629ms returns FALSE
T2A28 010:968.816 JLINK_IsHalted()
T2A28 010:969.410 - 0.607ms returns FALSE
T2A28 011:070.355 JLINK_IsHalted()
T2A28 011:070.873 - 0.533ms returns FALSE
T2A28 011:171.833 JLINK_IsHalted()
T2A28 011:172.426 - 0.612ms returns FALSE
T2A28 011:272.650 JLINK_IsHalted()
T2A28 011:273.069 - 0.425ms returns FALSE
T2A28 011:373.642 JLINK_IsHalted()
T2A28 011:374.197 - 0.569ms returns FALSE
T2A28 011:475.065 JLINK_IsHalted()
T2A28 011:475.603 - 0.550ms returns FALSE
T2A28 011:576.472 JLINK_IsHalted()
T2A28 011:577.057 - 0.597ms returns FALSE
T2A28 011:678.558 JLINK_IsHalted()
T2A28 011:679.109 - 0.566ms returns FALSE
T2A28 011:779.296 JLINK_IsHalted()
T2A28 011:779.854 - 0.574ms returns FALSE
T2A28 011:880.917 JLINK_IsHalted()
T2A28 011:881.470 - 0.566ms returns FALSE
T2A28 011:981.555 JLINK_IsHalted()
T2A28 011:982.141 - 0.614ms returns FALSE
T2A28 012:082.941 JLINK_IsHalted()
T2A28 012:083.452 - 0.528ms returns FALSE
T2A28 012:184.412 JLINK_IsHalted()
T2A28 012:185.013 - 0.614ms returns FALSE
T2A28 012:285.796 JLINK_IsHalted()
T2A28 012:286.343 - 0.561ms returns FALSE
T2A28 012:386.668 JLINK_IsHalted()
T2A28 012:387.266 - 0.614ms returns FALSE
T2A28 012:487.985 JLINK_IsHalted()
T2A28 012:488.540 - 0.571ms returns FALSE
T2A28 012:589.585 JLINK_IsHalted()
T2A28 012:590.143 - 0.572ms returns FALSE
T2A28 012:690.421 JLINK_IsHalted()
T2A28 012:690.969 - 0.567ms returns FALSE
T2A28 012:791.554 JLINK_IsHalted()
T2A28 012:792.162 - 0.622ms returns FALSE
T2A28 012:892.523 JLINK_IsHalted()
T2A28 012:892.929 - 0.421ms returns FALSE
T2A28 012:993.780 JLINK_IsHalted()
T2A28 012:994.441 - 0.675ms returns FALSE
T2A28 013:095.018 JLINK_IsHalted()
T2A28 013:095.614 - 0.615ms returns FALSE
T2A28 013:196.662 JLINK_IsHalted()
T2A28 013:197.241 - 0.589ms returns FALSE
T2A28 013:298.488 JLINK_IsHalted()
T2A28 013:299.015 - 0.539ms returns FALSE
T2A28 013:399.606 JLINK_IsHalted()
T2A28 013:400.125 - 0.538ms returns FALSE
T2A28 013:500.334 JLINK_IsHalted()
T2A28 013:500.995 - 0.682ms returns FALSE
T2A28 013:601.380 JLINK_IsHalted()
T2A28 013:601.958 - 0.584ms returns FALSE
T2A28 013:702.637 JLINK_IsHalted()
T2A28 013:703.189 - 0.564ms returns FALSE
T2A28 013:804.235 JLINK_IsHalted()
T2A28 013:804.806 - 0.583ms returns FALSE
T2A28 013:905.654 JLINK_IsHalted()
T2A28 013:906.258 - 0.619ms returns FALSE
T2A28 014:006.707 JLINK_IsHalted()
T2A28 014:007.150 - 0.456ms returns FALSE
T2A28 014:108.615 JLINK_IsHalted()
T2A28 014:109.118 - 0.511ms returns FALSE
T2A28 014:209.312 JLINK_IsHalted()
T2A28 014:210.797 - 1.496ms returns FALSE
T2A28 014:311.622 JLINK_IsHalted()
T2A28 014:312.207 - 0.616ms returns FALSE
T2A28 014:412.563 JLINK_IsHalted()
T2A28 014:412.985 - 0.436ms returns FALSE
T2A28 014:513.652 JLINK_IsHalted()
T2A28 014:514.216 - 0.581ms returns FALSE
T2A28 014:614.650 JLINK_IsHalted()
T2A28 014:615.258 - 0.622ms returns FALSE
T2A28 014:715.894 JLINK_IsHalted()
T2A28 014:716.431 - 0.550ms returns FALSE
T2A28 014:816.752 JLINK_IsHalted()
T2A28 014:817.380 - 0.646ms returns FALSE
T2A28 014:917.909 JLINK_IsHalted()
T2A28 014:918.470 - 0.592ms returns FALSE
T2A28 015:018.602 JLINK_IsHalted()
T2A28 015:019.150 - 0.562ms returns FALSE
T2A28 015:119.454 JLINK_IsHalted()
T2A28 015:120.042 - 0.606ms returns FALSE
T2A28 015:220.515 JLINK_IsHalted()
T2A28 015:221.091 - 0.586ms returns FALSE
T2A28 015:321.569 JLINK_IsHalted()
T2A28 015:322.090 - 0.535ms returns FALSE
T2A28 015:422.532 JLINK_IsHalted()
T2A28 015:423.065 - 0.549ms returns FALSE
T2A28 015:523.626 JLINK_IsHalted()
T2A28 015:524.251 - 0.644ms returns FALSE
T2A28 015:624.730 JLINK_IsHalted()
T2A28 015:625.109 - 0.391ms returns FALSE
T2A28 015:725.501 JLINK_IsHalted()
T2A28 015:726.108 - 0.621ms returns FALSE
T2A28 015:826.493 JLINK_IsHalted()
T2A28 015:826.893 - 0.413ms returns FALSE
T2A28 015:927.733 JLINK_IsHalted()
T2A28 015:928.305 - 0.593ms returns FALSE
T2A28 016:028.512 JLINK_IsHalted()
T2A28 016:029.081 - 0.578ms returns FALSE
T2A28 016:129.433 JLINK_IsHalted()
T2A28 016:130.001 - 0.584ms returns FALSE
T2A28 016:230.616 JLINK_IsHalted()
T2A28 016:231.187 - 0.585ms returns FALSE
T2A28 016:331.584 JLINK_IsHalted()
T2A28 016:332.216 - 0.646ms returns FALSE
T2A28 016:432.733 JLINK_IsHalted()
T2A28 016:433.275 - 0.557ms returns FALSE
T2A28 016:533.950 JLINK_IsHalted()
T2A28 016:534.474 - 0.536ms returns FALSE
T2A28 016:634.638 JLINK_IsHalted()
T2A28 016:635.188 - 0.565ms returns FALSE
T2A28 016:735.960 JLINK_IsHalted()
